Circuit: * C:\Users\handr\Desktop\SCIA PROIECT!\Etaj3.asc

Instance "m:u1:1": Length shorter than recommended for a level 2 MOSFET.
Instance "m:u1:2": Length shorter than recommended for a level 2 MOSFET.
Instance "m:u1:3": Length shorter than recommended for a level 2 MOSFET.
Instance "m:u1:4": Length shorter than recommended for a level 2 MOSFET.
Instance "m:u1:5": Length shorter than recommended for a level 2 MOSFET.
Instance "m:u1:6": Length shorter than recommended for a level 2 MOSFET.
Direct Newton iteration failed to find .op point.  (Use ".option noopiter" to skip.)
Starting Gmin stepping
Gmin = 10
Gmin = 1.07374
Gmin = 0.115292
Gmin = 0.0123794
Gmin = 0.00132923
vernier = 0.5
vernier = 0.25
vernier = 0.125
vernier = 0.0625
Gmin = 0.00100083
vernier = 0.03125
vernier = 0.015625
vernier = 0.0078125
vernier = 0.00390625
vernier = 0.00195312
Gmin = 0.00100083
vernier = 0.000976562
vernier = 0.000488281
Gmin = 0
Gmin stepping failed

Starting source stepping with srcstepmethod=0
Source Step = 3.0303%
Source Step = 33.3333%
vernier = 0.25
Source Step = 32.7711%
Source Step = 32.8007%
Source Step = 32.8303%
Source Step = 32.8598%
Source Step = 32.8894%
Source Step = 32.919%
vernier = 0.00146484
Source Step = 32.9619%
Source Step = 33.0063%
Source Step = 33.0507%
Source Step = 33.0951%
Source Step = 33.1395%
vernier = 0.00219727
Source Step = 33.2016%
Source Step = 33.2682%
Source Step = 33.3348%
Source Step = 33.4014%
Source Step = 33.468%
vernier = 0.0032959
Source Step = 33.5579%
Source Step = 33.6577%
Source Step = 33.7576%
Source Step = 33.8575%
Source Step = 33.9574%
vernier = 0.00494385
Source Step = 34.0872%
Source Step = 34.237%
Source Step = 34.3868%
Source Step = 34.5367%
Source Step = 34.6865%
vernier = 0.00741577
Source Step = 34.8737%
Source Step = 35.0985%
Source Step = 35.3232%
Source Step = 35.5479%
Source Step = 35.7726%
vernier = 0.0111237
Source Step = 36.0423%
Source Step = 36.3794%
Source Step = 36.7164%
Source Step = 37.0535%
Source Step = 37.3906%
vernier = 0.0166855
Source Step = 37.7782%
Source Step = 38.2839%
Source Step = 38.7895%
Source Step = 39.2951%
Source Step = 39.8007%
vernier = 0.0250282
Source Step = 40.3569%
Source Step = 41.1153%
Source Step = 41.8738%
Source Step = 42.6322%
Source Step = 43.3906%
vernier = 0.0375423
Source Step = 44.187%
Source Step = 45.3246%
Source Step = 46.4623%
Source Step = 47.5999%
Source Step = 48.7376%
Source Step = 49.8752%
vernier = 0.0563135
Source Step = 51.5817%
Source Step = 53.2882%
Source Step = 54.9946%
Source Step = 56.7011%
Source Step = 58.4076%
vernier = 0.0844703
Source Step = 60.882%
Source Step = 63.4417%
Source Step = 66.0014%
Source Step = 68.5611%
Source Step = 71.1208%
vernier = 0.126705
Source Step = 74.7044%
Source Step = 78.5439%
Source Step = 82.3835%
Source Step = 86.223%
Source Step = 90.0626%
vernier = 0.190058
Source Step = 92.5103%
Source Step = 93.9501%
Source Step = 95.39%
Source Step = 96.8298%
Source Step = 98.2696%
vernier = 0.0712718
Source Step = 99.9974%
Source stepping succeeded in finding the operating point.

Semiconductor Device Operating Points:
                        --- Diodes ---
Name:    d:u1:1      d:u1:2      d:u1:3      d:u1:4      d:u1:5
Model:    u1:dx       u1:dx       u1:dx       u1:dx     u1:dnoise
Id:     -1.42e-11    5.00e-06   -7.12e-12   -8.30e-12    9.99e-04
Vd:     -1.42e+01    5.18e-01   -7.11e+00   -8.29e+00    6.55e-01
Req:     1.00e+12    5.17e+03    1.00e+12    1.00e+12    2.59e+01
CAP:     0.00e+00    0.00e+00    0.00e+00    0.00e+00    0.00e+00

Name:    d:u7:5      d:u7:6      d:u7:3      d:u7:1      d:u7:2
Model:    u7:y        u7:y        u7:dc     u7:dbias    u7:dbias
Id:      1.04e-17   -1.04e-17   -1.16e-19    1.16e-13   -1.17e-22
Vd:      1.04e-05   -1.04e-05   -1.16e-10    1.16e-10   -1.16e-10
Req:     1.00e-12    1.00e-12    1.00e-09    1.00e-03    1.00e-12
CAP:     0.00e+00    0.00e+00    0.00e+00    0.00e+00    0.00e+00

Name:    d:u8:3      d:u8:2      d:u8:1      d:u8:4      d:u9:3
Model:    u8:s        u8:s        u8:s        u8:s        u9:s
Id:     -1.50e-08   -1.48e-14   -1.50e-08    0.00e+00   -1.50e-08
Vd:     -1.50e+01   -1.48e-05   -1.50e+01    0.00e+00   -1.50e+01
Req:     1.00e-09    1.00e-09    1.00e-09    1.00e-09    1.00e-09
CAP:     0.00e+00    0.00e+00    0.00e+00    0.00e+00    0.00e+00

Name:    d:u9:2      d:u9:1      d:u9:4      d:u10:3     d:u10:2
Model:    u9:s        u9:s        u9:s        u10:s       u10:s
Id:     -9.54e-13   -1.50e-08    0.00e+00   -1.50e-08   -9.00e-13
Vd:     -9.54e-04   -1.50e+01    0.00e+00   -1.50e+01   -9.00e-04
Req:     1.00e-09    1.00e-09    1.00e-09    1.00e-09    1.00e-09
CAP:     0.00e+00    0.00e+00    0.00e+00    0.00e+00    0.00e+00

Name:    d:u10:1     d:u10:4     d:u11:3     d:u11:2     d:u11:1
Model:    u10:s       u10:s       u11:s       u11:s       u11:s
Id:     -1.50e-08    0.00e+00   -1.50e-08   -8.68e-13   -1.50e-08
Vd:     -1.50e+01    0.00e+00   -1.50e+01   -8.68e-04   -1.50e+01
Req:     1.00e-09    1.00e-09    1.00e-09    1.00e-09    1.00e-09
CAP:     0.00e+00    0.00e+00    0.00e+00    0.00e+00    0.00e+00

Name:    d:u11:4     d:u12:3     d:u12:2     d:u12:1     d:u12:4
Model:    u11:s       u12:s       u12:s       u12:s       u12:s
Id:      0.00e+00   -1.50e-08   -8.48e-13   -1.50e-08    0.00e+00
Vd:      0.00e+00   -1.50e+01   -8.48e-04   -1.50e+01    0.00e+00
Req:     1.00e-09    1.00e-09    1.00e-09    1.00e-09    1.00e-09
CAP:     0.00e+00    0.00e+00    0.00e+00    0.00e+00    0.00e+00

                        --- VDMOSFET Transistors ---
Name:        m:u7:1      m:u7:2      m:u8:2      m:u8:1      m:u9:2
Model:        u7:n        u7:p        u8:p        u8:n        u9:p
Id:          1.05e-12    2.10e-12   -1.48e-17    6.28e-08   -9.54e-16
Vgs:         1.04e-05    1.04e-05   -5.00e-02    6.60e+00    1.49e+01
Vds:         1.16e-10    2.33e-10   -1.48e-05    1.48e-05   -9.54e-04
Vth:        -1.50e-01    1.50e-01   -1.00e-01    1.00e-01   -1.00e-01
Gm:          6.98e-12    1.40e-11    0.00e+00    9.66e-09    0.00e+00
Gds:         9.00e-03    9.00e-03    0.00e+00    6.79e-03    0.00e+00
Cgs:         0.00e+00    0.00e+00    1.06e-14    7.07e-15    1.06e-14
Cgd:         0.00e+00    0.00e+00    0.00e+00    0.00e+00    0.00e+00
Cbody:       0.00e+00    0.00e+00    0.00e+00    0.00e+00    0.00e+00

Name:        m:u9:1      m:u10:2     m:u10:1     m:u11:2     m:u11:1
Model:        u9:n        u10:p       u10:n       u11:p       u11:n
Id:          9.54e-16   -9.00e-16    9.00e-16   -8.68e-16    8.68e-16
Vgs:        -8.40e+00    1.49e+01   -8.40e+00    1.49e+01   -8.40e+00
Vds:         9.54e-04   -9.00e-04    9.00e-04   -8.68e-04    8.68e-04
Vth:         1.00e-01   -1.00e-01    1.00e-01   -1.00e-01    1.00e-01
Gm:          0.00e+00    0.00e+00    0.00e+00    0.00e+00    0.00e+00
Gds:         0.00e+00    0.00e+00    0.00e+00    0.00e+00    0.00e+00
Cgs:         7.07e-15    1.06e-14    7.07e-15    1.06e-14    7.07e-15
Cgd:         0.00e+00    0.00e+00    0.00e+00    0.00e+00    0.00e+00
Cbody:       0.00e+00    0.00e+00    0.00e+00    0.00e+00    0.00e+00

Name:        m:u12:2     m:u12:1
Model:        u12:p       u12:n
Id:         -8.48e-16    8.48e-16
Vgs:         1.49e+01   -8.40e+00
Vds:        -8.48e-04    8.48e-04
Vth:        -1.00e-01    1.00e-01
Gm:          0.00e+00    0.00e+00
Gds:         0.00e+00    0.00e+00
Cgs:         1.06e-14    7.07e-15
Cgd:         0.00e+00    0.00e+00
Cbody:       0.00e+00    0.00e+00

                        --- MOSFET Transistors ---
Name:        m:u1:1      m:u1:2      m:u1:3      m:u1:4      m:u1:5
Model:       u1:pix      u1:pix      u1:nix      u1:nix      u1:pox
Id:         -2.51e-06   -2.49e-06    3.07e-11    3.07e-11   -6.98e-07
Vgs:        -5.37e-01   -5.37e-01    3.56e-01    3.56e-01   -7.06e-01
Vds:        -3.37e-01   -3.38e-01    1.54e+01    1.54e+01   -1.50e+01
Vbs:         0.00e+00    0.00e+00    0.00e+00    0.00e+00    0.00e+00
Vth:        -5.00e-01   -5.00e-01    5.00e-01    5.00e-01   -7.00e-01
Vdsat:      -3.72e-02   -3.72e-02    0.00e+00    0.00e+00   -6.42e-03
Gm:          1.35e-04    1.34e-04    0.00e+00    0.00e+00    2.18e-04
Gds:         1.20e-07    1.19e-07    0.00e+00    0.00e+00    1.11e-07
Gmb:         0.00e+00    0.00e+00    0.00e+00    0.00e+00    0.00e+00
Cbd:         0.00e+00    0.00e+00    0.00e+00    0.00e+00    0.00e+00
Cbs:         0.00e+00    0.00e+00    0.00e+00    0.00e+00    0.00e+00
Cgsov:       0.00e+00    0.00e+00    0.00e+00    0.00e+00    0.00e+00
Cgdov:       0.00e+00    0.00e+00    0.00e+00    0.00e+00    0.00e+00
Cgbov:       0.00e+00    0.00e+00    0.00e+00    0.00e+00    0.00e+00
Cgs:         5.46e-14    5.46e-14    1.07e-14    1.07e-14    5.76e-14
Cgd:         0.00e+00    0.00e+00    0.00e+00    0.00e+00    0.00e+00
Cgb:         0.00e+00    0.00e+00    7.34e-15    7.34e-15    0.00e+00

Name:        m:u1:6
Model:       u1:nox
Id:          7.10e-07
Vgs:         6.74e-01
Vds:         5.02e-04
Vbs:         0.00e+00
Vth:         6.00e-01
Vdsat:       7.36e-02
Gm:          9.69e-06
Gds:         1.41e-03
Gmb:         0.00e+00
Cbd:         0.00e+00
Cbs:         0.00e+00
Cgsov:       0.00e+00
Cgdov:       0.00e+00
Cgbov:       0.00e+00
Cgs:         3.34e-13
Cgd:         3.32e-13
Cgb:         0.00e+00


Note: .fourier statements are only valid with a .tran command.
      No Fourier analysis performed.


Date: Mon Jan 15 21:00:26 2024
Total elapsed time: 0.328 seconds.

tnom = 27
temp = 27
method = trap
totiter = 5112
traniter = 0
tranpoints = 0
accept = 0
rejected = 0
matrix size = 121
fillins = 44
solver = Normal
Avg thread counts: 1.8/0.0/3.0/1.7
Matrix Compiler1:     513 opcodes
Matrix Compiler2: off  [1.1]/1.8/1.2

